time	V(n003)	V(n005)	V(n006)	I(R3)	Ib(Q5)
0.000000000000000e+000	2.399693e+001	5.000000e-001	4.999876e-001	3.068027e-006	1.239848e-008
4.893100138620608e-003	2.399664e+001	5.024465e-001	5.024329e-001	3.363623e-006	1.360412e-008
9.786200277241216e-003	2.399630e+001	5.048931e-001	5.048781e-001	3.697699e-006	1.496372e-008
1.467930041586182e-002	2.399593e+001	5.073396e-001	5.073232e-001	4.070255e-006	1.647728e-008
1.957240055448243e-002	2.399552e+001	5.097862e-001	5.097681e-001	4.481291e-006	1.814479e-008
2.446550069310304e-002	2.399507e+001	5.122327e-001	5.122128e-001	4.930807e-006	1.996626e-008
2.935860083172365e-002	2.399458e+001	5.146793e-001	5.146574e-001	5.418803e-006	2.194168e-008
3.425170097034425e-002	2.399405e+001	5.171258e-001	5.171018e-001	5.945279e-006	2.407105e-008
3.899500454177282e-002	2.399350e+001	5.194975e-001	5.194712e-001	6.500318e-006	2.631929e-008
4.373830811320139e-002	2.399288e+001	5.218691e-001	5.218403e-001	7.124563e-006	2.884798e-008
4.848161168462997e-002	2.399218e+001	5.242408e-001	5.242092e-001	7.818012e-006	3.165715e-008
5.322491525605853e-002	2.399142e+001	5.266125e-001	5.265777e-001	8.580666e-006	3.474677e-008
5.796821882748711e-002	2.399059e+001	5.289841e-001	5.289460e-001	9.412524e-006	3.811686e-008
6.271152239891568e-002	2.398969e+001	5.313558e-001	5.313140e-001	1.031359e-005	4.176742e-008
6.745482597034425e-002	2.398872e+001	5.337274e-001	5.336817e-001	1.128386e-005	4.569843e-008
7.219812954177282e-002	2.398766e+001	5.360991e-001	5.360491e-001	1.233644e-005	4.996302e-008
7.694143311320140e-002	2.398648e+001	5.384707e-001	5.384159e-001	1.351980e-005	5.475783e-008
8.168473668462997e-002	2.398517e+001	5.408424e-001	5.407823e-001	1.483393e-005	6.008285e-008
8.642804025605853e-002	2.398372e+001	5.432140e-001	5.431481e-001	1.627883e-005	6.593809e-008
9.117134382748711e-002	2.398215e+001	5.455857e-001	5.455134e-001	1.785450e-005	7.232355e-008
9.591464739891568e-002	2.398044e+001	5.479573e-001	5.478781e-001	1.956094e-005	7.923922e-008
1.006579509703443e-001	2.397860e+001	5.503290e-001	5.502423e-001	2.139816e-005	8.668511e-008
1.054012545417728e-001	2.397661e+001	5.527006e-001	5.526059e-001	2.339117e-005	9.476254e-008
1.101445581132014e-001	2.397437e+001	5.550723e-001	5.549684e-001	2.563011e-005	1.038379e-007
1.148878616846300e-001	2.397189e+001	5.574439e-001	5.573300e-001	2.811499e-005	1.139111e-007
1.196311652560585e-001	2.396915e+001	5.598156e-001	5.596906e-001	3.084581e-005	1.249823e-007
1.243744688274871e-001	2.396618e+001	5.621872e-001	5.620502e-001	3.382256e-005	1.370514e-007
1.291177723989157e-001	2.396295e+001	5.645589e-001	5.644088e-001	3.704524e-005	1.501183e-007
1.338610759703443e-001	2.395949e+001	5.669305e-001	5.667664e-001	4.051386e-005	1.641832e-007
1.386043795417728e-001	2.395572e+001	5.693022e-001	5.691228e-001	4.427630e-005	1.794399e-007
1.433476831132014e-001	2.395150e+001	5.716738e-001	5.714773e-001	4.849716e-005	1.965590e-007
1.480909866846300e-001	2.394682e+001	5.740455e-001	5.738300e-001	5.317644e-005	2.155407e-007
1.528342902560586e-001	2.394169e+001	5.764171e-001	5.761808e-001	5.831413e-005	2.363849e-007
1.575775938274871e-001	2.393609e+001	5.787888e-001	5.785297e-001	6.391024e-005	2.590916e-007
1.623208973989157e-001	2.393004e+001	5.811604e-001	5.808768e-001	6.996476e-005	2.836608e-007
1.670642009703443e-001	2.392352e+001	5.835321e-001	5.832220e-001	7.647770e-005	3.100925e-007
1.709704509703443e-001	2.391770e+001	5.854852e-001	5.851515e-001	8.229686e-005	3.337109e-007
1.748767009703443e-001	2.391134e+001	5.874383e-001	5.870788e-001	8.865552e-005	3.595258e-007
1.787829509703443e-001	2.390445e+001	5.893915e-001	5.890039e-001	9.555369e-005	3.875371e-007
1.826892009703443e-001	2.389701e+001	5.913446e-001	5.909268e-001	1.029914e-004	4.177449e-007
1.865954509703443e-001	2.388903e+001	5.932977e-001	5.928475e-001	1.109685e-004	4.501491e-007
1.905017009703443e-001	2.388051e+001	5.952508e-001	5.947661e-001	1.194852e-004	4.847497e-007
1.944079509703443e-001	2.387146e+001	5.972040e-001	5.966824e-001	1.285414e-004	5.215468e-007
1.974771473989157e-001	2.386385e+001	5.987386e-001	5.981861e-001	1.361454e-004	5.524487e-007
2.005463438274871e-001	2.385574e+001	6.002732e-001	5.996877e-001	1.442608e-004	5.854379e-007
2.036155402560586e-001	2.384711e+001	6.018078e-001	6.011872e-001	1.528875e-004	6.205144e-007
2.066847366846300e-001	2.383797e+001	6.033424e-001	6.026847e-001	1.620255e-004	6.576781e-007
2.097539331132014e-001	2.382833e+001	6.048770e-001	6.041800e-001	1.716748e-004	6.969292e-007
2.128231295417728e-001	2.381817e+001	6.064116e-001	6.056733e-001	1.818354e-004	7.382675e-007
2.158923259703443e-001	2.380749e+001	6.079462e-001	6.071645e-001	1.925074e-004	7.816931e-007
2.188220134703443e-001	2.379667e+001	6.094110e-001	6.085852e-001	2.033311e-004	8.257499e-007
2.199380848989157e-001	2.379240e+001	6.099690e-001	6.091259e-001	2.076028e-004	8.431405e-007
2.210541563274871e-001	2.378803e+001	6.105271e-001	6.096662e-001	2.119653e-004	8.609026e-007
2.221702277560585e-001	2.378358e+001	6.110851e-001	6.102061e-001	2.164186e-004	8.790362e-007
2.232862991846300e-001	2.377904e+001	6.116431e-001	6.107456e-001	2.209627e-004	8.975414e-007
2.244023706132014e-001	2.377440e+001	6.122012e-001	6.112848e-001	2.255975e-004	9.164182e-007
2.255184420417728e-001	2.376968e+001	6.127592e-001	6.118236e-001	2.303231e-004	9.356665e-007
2.266345134703443e-001	2.376486e+001	6.133173e-001	6.123620e-001	2.351395e-004	9.552864e-007
2.285876384703443e-001	2.375619e+001	6.142938e-001	6.133032e-001	2.438094e-004	9.906096e-007
2.295642009703443e-001	2.375174e+001	6.147821e-001	6.137733e-001	2.482584e-004	1.008739e-006
2.305407634703443e-001	2.374722e+001	6.152704e-001	6.142432e-001	2.527851e-004	1.027186e-006
2.315173259703443e-001	2.374261e+001	6.157587e-001	6.147127e-001	2.573907e-004	1.045957e-006
2.324938884703443e-001	2.373792e+001	6.162469e-001	6.151819e-001	2.620765e-004	1.065057e-006
2.334704509703443e-001	2.373316e+001	6.167352e-001	6.156508e-001	2.668437e-004	1.084491e-006
2.344470134703443e-001	2.372831e+001	6.172235e-001	6.161193e-001	2.716936e-004	1.104264e-006
2.354235759703443e-001	2.372337e+001	6.177118e-001	6.165874e-001	2.766275e-004	1.124381e-006
2.364001384703443e-001	2.371835e+001	6.182001e-001	6.170552e-001	2.816467e-004	1.144849e-006
2.373767009703443e-001	2.371325e+001	6.186883e-001	6.175227e-001	2.867525e-004	1.165672e-006
2.383532634703443e-001	2.370805e+001	6.191766e-001	6.179898e-001	2.919463e-004	1.186857e-006
2.393298259703443e-001	2.370277e+001	6.196649e-001	6.184565e-001	2.972294e-004	1.208408e-006
2.403063884703443e-001	2.369740e+001	6.201532e-001	6.189228e-001	3.026031e-004	1.230332e-006
2.412829509703443e-001	2.369193e+001	6.206415e-001	6.193888e-001	3.080690e-004	1.252634e-006
2.432360759703443e-001	2.368072e+001	6.216180e-001	6.203196e-001	3.192826e-004	1.298397e-006
2.461657634703443e-001	2.366317e+001	6.230829e-001	6.217129e-001	3.368290e-004	1.370028e-006
2.496534866846300e-001	2.364128e+001	6.248267e-001	6.233674e-001	3.587159e-004	1.459390e-006
2.531412098989157e-001	2.361786e+001	6.265706e-001	6.250155e-001	3.821415e-004	1.555111e-006
2.566289331132014e-001	2.359290e+001	6.283145e-001	6.266573e-001	4.071057e-004	1.657191e-006
2.601166563274871e-001	2.356639e+001	6.300583e-001	6.282927e-001	4.336085e-004	1.765630e-006
2.636043795417729e-001	2.353835e+001	6.318022e-001	6.299218e-001	4.616499e-004	1.880427e-006
2.670921027560586e-001	2.350877e+001	6.335460e-001	6.315445e-001	4.912299e-004	2.001583e-006
2.705798259703443e-001	2.347765e+001	6.352899e-001	6.331608e-001	5.223486e-004	2.129098e-006
2.769972366846299e-001	2.341659e+001	6.384986e-001	6.361195e-001	5.834103e-004	2.379166e-006
2.834146473989157e-001	2.334751e+001	6.417073e-001	6.390444e-001	6.524889e-004	2.662967e-006
2.898320581132014e-001	2.327041e+001	6.449160e-001	6.419355e-001	7.295844e-004	2.980500e-006
2.962494688274871e-001	2.318530e+001	6.481247e-001	6.447930e-001	8.146968e-004	3.331767e-006
3.026668795417729e-001	2.309217e+001	6.513334e-001	6.476167e-001	9.078261e-004	3.716766e-006
3.090842902560586e-001	2.299103e+001	6.545421e-001	6.504067e-001	1.008972e-003	4.135498e-006
3.155017009703443e-001	2.288186e+001	6.577508e-001	6.531629e-001	1.118136e-003	4.587963e-006
3.255463438274871e-001	2.269102e+001	6.627732e-001	6.573961e-001	1.308976e-003	5.377066e-006
3.355909866846299e-001	2.247189e+001	6.677955e-001	6.615023e-001	1.528105e-003	6.293180e-006
3.456356295417729e-001	2.222448e+001	6.728178e-001	6.654815e-001	1.775524e-003	7.336306e-006
3.556802723989157e-001	2.194877e+001	6.778401e-001	6.693337e-001	2.051231e-003	8.506443e-006
3.657249152560586e-001	2.164477e+001	6.828625e-001	6.730589e-001	2.355227e-003	9.803593e-006
3.757695581132014e-001	2.131249e+001	6.878848e-001	6.766570e-001	2.687511e-003	1.122775e-005
3.858142009703443e-001	2.095192e+001	6.929071e-001	6.801282e-001	3.048085e-003	1.277893e-005
3.925106295417728e-001	2.069387e+001	6.962553e-001	6.823569e-001	3.306134e-003	1.389841e-005
3.992070581132014e-001	2.042452e+001	6.996035e-001	6.845270e-001	3.575484e-003	1.507648e-005
4.059034866846299e-001	2.014387e+001	7.029517e-001	6.866386e-001	3.856134e-003	1.631315e-005
4.125999152560586e-001	1.985192e+001	7.063000e-001	6.886915e-001	4.148083e-003	1.760841e-005
4.192963438274871e-001	1.954867e+001	7.096482e-001	6.906859e-001	4.451332e-003	1.896227e-005
4.259927723989157e-001	1.923412e+001	7.129964e-001	6.926217e-001	4.765882e-003	2.037472e-005
4.326892009703443e-001	1.890827e+001	7.163446e-001	6.944988e-001	5.091731e-003	2.184577e-005
4.370139777560586e-001	1.869311e+001	7.185070e-001	6.956828e-001	5.306894e-003	2.282424e-005
4.413387545417728e-001	1.847452e+001	7.206694e-001	6.968455e-001	5.525484e-003	2.382391e-005
4.456635313274871e-001	1.825250e+001	7.228318e-001	6.979870e-001	5.747500e-003	2.484478e-005
4.499883081132014e-001	1.802706e+001	7.249941e-001	6.991073e-001	5.972941e-003	2.588685e-005
4.543130848989157e-001	1.779819e+001	7.271565e-001	7.002064e-001	6.201809e-003	2.695012e-005
4.586378616846299e-001	1.756590e+001	7.293189e-001	7.012844e-001	6.434103e-003	2.803458e-005
4.629626384703443e-001	1.733018e+001	7.314813e-001	7.023411e-001	6.669823e-003	2.914025e-005
4.663108527560586e-001	1.714583e+001	7.331554e-001	7.031460e-001	6.854170e-003	3.000942e-005
4.696590670417728e-001	1.696000e+001	7.348295e-001	7.039399e-001	7.040001e-003	3.088963e-005
4.730072813274871e-001	1.677269e+001	7.365036e-001	7.047228e-001	7.227315e-003	3.178086e-005
4.763554956132014e-001	1.658389e+001	7.381777e-001	7.054946e-001	7.416111e-003	3.268312e-005
4.797037098989157e-001	1.639361e+001	7.398518e-001	7.062554e-001	7.606391e-003	3.359642e-005
4.830519241846299e-001	1.620185e+001	7.415260e-001	7.070052e-001	7.798154e-003	3.452074e-005
4.864001384703443e-001	1.600860e+001	7.432001e-001	7.077440e-001	7.991400e-003	3.545610e-005
4.891903170417728e-001	1.584666e+001	7.445952e-001	7.083519e-001	8.153342e-003	3.624329e-005
4.919804956132014e-001	1.568397e+001	7.459902e-001	7.089530e-001	8.316027e-003	3.703725e-005
4.947706741846299e-001	1.552055e+001	7.473853e-001	7.095474e-001	8.479454e-003	3.783795e-005
4.975608527560586e-001	1.535638e+001	7.487804e-001	7.101350e-001	8.643623e-003	3.864542e-005
5.003510313274872e-001	1.519147e+001	7.501755e-001	7.107159e-001	8.808534e-003	3.945963e-005
5.031412098989156e-001	1.502581e+001	7.515706e-001	7.112900e-001	8.974188e-003	4.028060e-005
5.059313884703443e-001	1.485942e+001	7.529657e-001	7.118574e-001	9.140584e-003	4.110833e-005
5.085820581132013e-001	1.470078e+001	7.542910e-001	7.123905e-001	9.299221e-003	4.190053e-005
5.112327277560586e-001	1.454167e+001	7.556164e-001	7.129183e-001	9.458326e-003	4.269815e-005
5.138833973989156e-001	1.438210e+001	7.569417e-001	7.134405e-001	9.617900e-003	4.350120e-005
5.165340670417729e-001	1.422206e+001	7.582670e-001	7.139574e-001	9.777943e-003	4.430969e-005
5.191847366846299e-001	1.406155e+001	7.595924e-001	7.144688e-001	9.938453e-003	4.512360e-005
5.218354063274872e-001	1.390057e+001	7.609177e-001	7.149748e-001	1.009943e-002	4.594294e-005
5.244860759703443e-001	1.373912e+001	7.622430e-001	7.154753e-001	1.026088e-002	4.676771e-005
5.269972366846299e-001	1.358583e+001	7.634986e-001	7.159449e-001	1.041417e-002	4.755377e-005
5.295083973989156e-001	1.343227e+001	7.647542e-001	7.164100e-001	1.056773e-002	4.834418e-005
5.320195581132013e-001	1.327844e+001	7.660098e-001	7.168708e-001	1.072156e-002	4.913896e-005
5.345307188274872e-001	1.312433e+001	7.672654e-001	7.173273e-001	1.087567e-002	4.993810e-005
5.370418795417729e-001	1.296995e+001	7.685209e-001	7.177794e-001	1.103005e-002	5.074159e-005
5.395530402560586e-001	1.281530e+001	7.697765e-001	7.182271e-001	1.118470e-002	5.154944e-005
5.420642009703443e-001	1.266038e+001	7.710321e-001	7.186704e-001	1.133962e-002	5.236166e-005
5.449938884703443e-001	1.247943e+001	7.724969e-001	7.191827e-001	1.152058e-002	5.331426e-005
5.479235759703443e-001	1.229822e+001	7.739618e-001	7.196894e-001	1.170178e-002	5.427239e-005
5.508532634703443e-001	1.211678e+001	7.754266e-001	7.201907e-001	1.188322e-002	5.523593e-005
5.537829509703443e-001	1.193514e+001	7.768915e-001	7.206867e-001	1.206486e-002	5.620481e-005
5.567126384703443e-001	1.175331e+001	7.783563e-001	7.211775e-001	1.224669e-002	5.717891e-005
5.596423259703443e-001	1.157134e+001	7.798212e-001	7.216630e-001	1.242866e-002	5.815816e-005
5.625720134703443e-001	1.138923e+001	7.812860e-001	7.221436e-001	1.261077e-002	5.914244e-005
5.655017009703443e-001	1.120702e+001	7.827508e-001	7.226192e-001	1.279298e-002	6.013169e-005
5.684313884703443e-001	1.102472e+001	7.842157e-001	7.230899e-001	1.297528e-002	6.112581e-005
5.713610759703443e-001	1.084236e+001	7.856805e-001	7.235558e-001	1.315764e-002	6.212473e-005
5.742907634703443e-001	1.065995e+001	7.871454e-001	7.240170e-001	1.334005e-002	6.312835e-005
5.772204509703443e-001	1.047752e+001	7.886102e-001	7.244737e-001	1.352248e-002	6.413658e-005
5.801501384703443e-001	1.029509e+001	7.900751e-001	7.249257e-001	1.370491e-002	6.514936e-005
5.830798259703443e-001	1.011268e+001	7.915399e-001	7.253733e-001	1.388732e-002	6.616661e-005
5.860095134703443e-001	9.930300e+000	7.930048e-001	7.258165e-001	1.406970e-002	6.718824e-005
5.889392009703443e-001	9.747974e+000	7.944696e-001	7.262554e-001	1.425203e-002	6.821418e-005
5.918688884703443e-001	9.565720e+000	7.959344e-001	7.266901e-001	1.443428e-002	6.924437e-005
5.947985759703443e-001	9.383552e+000	7.973993e-001	7.271206e-001	1.461645e-002	7.027872e-005
5.977282634703443e-001	9.201488e+000	7.988641e-001	7.275469e-001	1.479851e-002	7.131716e-005
6.006579509703443e-001	9.019544e+000	8.003290e-001	7.279693e-001	1.498046e-002	7.235964e-005
6.035876384703443e-001	8.837733e+000	8.017938e-001	7.283877e-001	1.516227e-002	7.340607e-005
6.065173259703443e-001	8.656074e+000	8.032587e-001	7.288023e-001	1.534393e-002	7.445640e-005
6.094470134703443e-001	8.474577e+000	8.047235e-001	7.292129e-001	1.552542e-002	7.551056e-005
6.123767009703443e-001	8.293259e+000	8.061883e-001	7.296199e-001	1.570674e-002	7.656849e-005
6.153063884703443e-001	8.112130e+000	8.076532e-001	7.300231e-001	1.588787e-002	7.763012e-005
6.182360759703443e-001	7.931207e+000	8.091180e-001	7.304226e-001	1.606879e-002	7.869539e-005
6.211657634703443e-001	7.750499e+000	8.105829e-001	7.308186e-001	1.624950e-002	7.976425e-005
6.240954509703443e-001	7.570020e+000	8.120477e-001	7.312111e-001	1.642998e-002	8.083663e-005
6.270251384703443e-001	7.389780e+000	8.135126e-001	7.316000e-001	1.661022e-002	8.191248e-005
6.299548259703443e-001	7.209792e+000	8.149774e-001	7.319857e-001	1.679021e-002	8.299176e-005
6.328845134703443e-001	7.030066e+000	8.164423e-001	7.323679e-001	1.696993e-002	8.407438e-005
6.355351831132013e-001	6.867674e+000	8.177676e-001	7.327108e-001	1.713233e-002	8.505684e-005
6.381858527560586e-001	6.705530e+000	8.190929e-001	7.330511e-001	1.729447e-002	8.604188e-005
6.408365223989156e-001	6.543633e+000	8.204183e-001	7.333888e-001	1.745637e-002	8.702949e-005
6.434871920417729e-001	6.381985e+000	8.217436e-001	7.337239e-001	1.761802e-002	8.801968e-005
6.461378616846299e-001	6.220584e+000	8.230689e-001	7.340565e-001	1.777942e-002	8.901244e-005
6.487885313274872e-001	6.059432e+000	8.243943e-001	7.343865e-001	1.794057e-002	9.000777e-005
6.514392009703443e-001	5.898527e+000	8.257196e-001	7.347139e-001	1.810147e-002	9.100568e-005
6.545083973989156e-001	5.712552e+000	8.272542e-001	7.350900e-001	1.828745e-002	9.216423e-005
6.575775938274872e-001	5.526971e+000	8.287888e-001	7.354629e-001	1.847303e-002	9.332589e-005
6.606467902560586e-001	5.341782e+000	8.303234e-001	7.358328e-001	1.865822e-002	9.449066e-005
6.637159866846299e-001	5.156985e+000	8.318580e-001	7.361995e-001	1.884301e-002	9.565853e-005
6.667851831132013e-001	4.972581e+000	8.333926e-001	7.365631e-001	1.902742e-002	9.682951e-005
6.698543795417729e-001	4.788570e+000	8.349272e-001	7.369236e-001	1.921143e-002	9.800359e-005
6.729235759703443e-001	4.604952e+000	8.364618e-001	7.372810e-001	1.939505e-002	9.918078e-005
6.772483527560586e-001	4.346917e+000	8.386242e-001	7.377795e-001	1.965308e-002	1.008447e-004
6.815731295417729e-001	4.089774e+000	8.407866e-001	7.382726e-001	1.991023e-002	1.025139e-004
6.858979063274872e-001	3.833524e+000	8.429489e-001	7.387603e-001	2.016648e-002	1.041886e-004
6.902226831132013e-001	3.578166e+000	8.451113e-001	7.392426e-001	2.042183e-002	1.058688e-004
6.945474598989156e-001	3.323701e+000	8.472737e-001	7.397194e-001	2.067630e-002	1.075543e-004
6.988722366846299e-001	3.070128e+000	8.494361e-001	7.401909e-001	2.092987e-002	1.092452e-004
7.031970134703443e-001	2.817448e+000	8.515985e-001	7.406569e-001	2.118255e-002	1.109416e-004
7.091958973989156e-001	2.468441e+000	8.545979e-001	7.412949e-001	2.153156e-002	1.133030e-004
7.151947813274872e-001	2.121384e+000	8.575974e-001	7.419241e-001	2.187862e-002	1.156733e-004
7.211936652560586e-001	1.776279e+000	8.605968e-001	7.425444e-001	2.222372e-002	1.180525e-004
7.271925491846299e-001	1.433125e+000	8.635963e-001	7.431558e-001	2.256688e-002	1.204404e-004
7.331914331132015e-001	1.091921e+000	8.665957e-001	7.437584e-001	2.290808e-002	1.228373e-004
7.391903170417729e-001	7.526684e-001	8.695952e-001	7.443522e-001	2.324733e-002	1.252430e-004
7.451892009703443e-001	4.153666e-001	8.725946e-001	7.449371e-001	2.358463e-002	1.276575e-004
7.461657634703443e-001	3.629657e-001	8.730829e-001	7.450280e-001	2.363703e-002	1.280550e-004
7.471423259703443e-001	3.174711e-001	8.735712e-001	7.451077e-001	2.368253e-002	1.284636e-004
7.481188884703443e-001	2.841622e-001	8.740594e-001	7.451679e-001	2.371584e-002	1.288917e-004
7.490954509703443e-001	2.628581e-001	8.745477e-001	7.452089e-001	2.373714e-002	1.293390e-004
7.500720134703443e-001	2.491823e-001	8.750360e-001	7.452376e-001	2.375082e-002	1.297985e-004
7.510485759703443e-001	2.395833e-001	8.755243e-001	7.452599e-001	2.376042e-002	1.302646e-004
7.520251384703443e-001	2.323892e-001	8.760126e-001	7.452784e-001	2.376761e-002	1.307344e-004
7.539782634703443e-001	2.219434e-001	8.769891e-001	7.453090e-001	2.377806e-002	1.316802e-004
7.569079509703443e-001	2.111873e-001	8.784540e-001	7.453471e-001	2.378881e-002	1.331069e-004
7.591400938274872e-001	2.056151e-001	8.795700e-001	7.453719e-001	2.379439e-002	1.341982e-004
7.613722366846299e-001	2.006010e-001	8.806861e-001	7.453958e-001	2.379940e-002	1.352903e-004
7.636043795417729e-001	1.961452e-001	8.818022e-001	7.454189e-001	2.380385e-002	1.363833e-004
7.658365223989156e-001	1.922476e-001	8.829183e-001	7.454410e-001	2.380775e-002	1.374773e-004
7.680686652560586e-001	1.889082e-001	8.840343e-001	7.454623e-001	2.381109e-002	1.385721e-004
7.703008081132013e-001	1.861270e-001	8.851504e-001	7.454826e-001	2.381387e-002	1.396678e-004
7.725329509703443e-001	1.839041e-001	8.862665e-001	7.455021e-001	2.381610e-002	1.407644e-004
7.783923259703443e-001	1.786299e-001	8.891962e-001	7.455523e-001	2.382137e-002	1.436439e-004
7.842517009703443e-001	1.738756e-001	8.921258e-001	7.456017e-001	2.382612e-002	1.465242e-004
